#  HZ   S   DB   R     50.00 
! Rohde & Schwarz Vector Network Analyzer 
! Rohde-Schwarz,ZNB40-4Port,1311601084101506,3.12
! Created: UTC 11/24/2023, 12:32:32 PM
! freq[Hz]                db:S11                  ang:S11                 db:S21                  ang:S21                 db:S12                  ang:S12                 db:S22                  ang:S22
 2.000000000000000E9    -1.973024760293880E1    -5.201154083521358E1    -1.481840949617396      -1.595873303718213E2    -3.890257116891873E1    -4.301824307676632E1    -2.381987491738062E1    -1.535166305624802E2
 2.010000000000000E9    -2.020558169843171E1    -5.377515203201573E1    -1.483081565168473      -1.652339489670230E2    -3.934014815464631E1    -4.994465884914343E1    -2.455797123362569E1    -1.569049917637940E2
 2.020000000000000E9    -2.071570024206813E1    -5.509730701861294E1    -1.471467203521899      -1.707742107435091E2    -4.002070773023223E1    -5.641875884948624E1    -2.535680871679087E1    -1.607345882157279E2
 2.030000000000000E9    -2.126578388313792E1    -5.631037988823298E1    -1.449408130853856      -1.762706340814849E2    -4.041297627525623E1    -6.363447912240114E1    -2.617667549969976E1    -1.638312852216553E2
 2.040000000000000E9    -2.175985206125593E1    -5.769984175729638E1    -1.416538145747801       1.782227823585473E2    -4.108205249214245E1    -6.994693764021638E1    -2.703030418661892E1    -1.668520660808310E2
 2.050000000000000E9    -2.236039199611458E1    -5.881764594001573E1    -1.380424773399735       1.726085434246471E2    -4.174992091049882E1    -7.743552268145545E1    -2.803428471937312E1    -1.695935371169496E2
 2.060000000000000E9    -2.287290900093740E1    -5.984069499966412E1    -1.344314665601805       1.669042559907919E2    -4.247362144722840E1    -8.294212978684961E1    -2.902362965678427E1    -1.730569969131091E2
 2.070000000000000E9    -2.344882506855850E1    -6.119278712553161E1    -1.328399982271880       1.612219760254694E2    -4.314244088348472E1    -8.958809300379571E1    -3.018636817106831E1    -1.760167562789206E2
 2.080000000000000E9    -2.405228654535657E1    -6.141964524228390E1    -1.315999527815621       1.555608424160105E2    -4.384967577249157E1    -9.637533930795847E1    -3.143255292585838E1    -1.779502908806582E2
 2.090000000000000E9    -2.473197772625764E1    -6.199894401301417E1    -1.310018728674277       1.499284293798574E2    -4.452681972759298E1    -1.012996732946602E2    -3.285675861188817E1     1.784402255970631E2
 2.100000000000000E9    -2.537630175883253E1    -6.273690230421720E1    -1.309166047284203       1.443837736014896E2    -4.550712428047233E1    -1.094492077020036E2    -3.448940143644103E1     1.760625547812561E2
 2.110000000000000E9    -2.611713784874087E1    -6.346679030188983E1    -1.303788666461844       1.388917059646333E2    -4.606252579361980E1    -1.153168797884666E2    -3.606642862722347E1     1.713658596731466E2
 2.120000000000000E9    -2.682038500544849E1    -6.369673376882639E1    -1.287423540062090       1.333547438221090E2    -4.667335699042845E1    -1.200319519010180E2    -3.836112621430162E1     1.690568374291487E2
 2.130000000000000E9    -2.747329045957554E1    -6.340278397309024E1    -1.268956637422789       1.277991729145086E2    -4.769750272538477E1    -1.276941650682489E2    -4.166865322211087E1     1.701483554240807E2
 2.140000000000000E9    -2.830831784638603E1    -6.382564844898950E1    -1.257219427251310       1.223242520906594E2    -4.899285515563577E1    -1.321386717425638E2    -4.598214440568089E1     1.738863277811649E2
 2.150000000000000E9    -2.927692081451561E1    -6.364498611941005E1    -1.254905264447963       1.167289172017311E2    -5.008580572210722E1    -1.365014513029626E2    -5.299577100462351E1    -1.487206321829396E2
 2.160000000000000E9    -3.020038442676963E1    -6.257717738600931E1    -1.243946075139136       1.111550580906085E2    -5.091036345552861E1    -1.425124615050431E2    -5.020706687371462E1    -6.551883542224152E1
 2.170000000000000E9    -3.119759872906969E1    -6.061710133047445E1    -1.227238061337805       1.056418930297848E2    -5.179353810292413E1    -1.501877395208267E2    -4.327338603470228E1    -4.639061207605511E1
 2.180000000000000E9    -3.219768149437854E1    -6.051573627566923E1    -1.223069168500250       1.001624665567636E2    -5.347147829307363E1    -1.534307897346399E2    -4.001491659646979E1    -4.764106056195011E1
 2.190000000000000E9    -3.364053077852557E1    -5.859557932341824E1    -1.212914215725982       9.463706205884908E1    -5.448284560939284E1    -1.583013936942609E2    -3.748737413307447E1    -4.855328631609687E1
 2.200000000000000E9    -3.465909256676718E1    -5.500295894818342E1    -1.205926774322466       8.912156750970016E1    -5.621336482306765E1    -1.567407686463614E2    -3.521727278311526E1    -4.996500641331582E1
 2.210000000000000E9    -3.624952657318227E1    -4.924828502187034E1    -1.189639022439854       8.362959961448408E1    -5.626002280928827E1    -1.709108891815233E2    -3.380754928695653E1    -5.290705253628628E1
 2.220000000000000E9    -3.753597917999836E1    -4.074033800893064E1    -1.180668567209546       7.808374954281739E1    -5.726938452622718E1    -1.707461970882231E2    -3.261023212834034E1    -5.435165189822746E1
 2.230000000000000E9    -3.871126920779309E1    -2.746857595399144E1    -1.185261769434213       7.249293613693195E1    -5.888256823024709E1    -1.745285170731283E2    -3.162656985404341E1    -5.823283933620201E1
 2.240000000000000E9    -3.988114785285906E1    -1.321348234300201E1    -1.190457504860842       6.697434364539046E1    -5.847216940762357E1    -1.792743512561806E2    -3.077999904147013E1    -6.222541849281771E1
 2.250000000000000E9    -3.936389372487362E1     5.955584495495605      -1.195597294146003       6.142519014561588E1    -6.197747205280430E1     1.786846270290112E2    -2.996621507674350E1    -6.566445121541445E1
 2.260000000000000E9    -3.863208877714898E1     1.857991743425802E1    -1.207683295572691       5.609261132734142E1    -6.092737946933297E1    -1.763930657768908E2    -2.902831875402272E1    -6.926708914045027E1
 2.270000000000000E9    -3.751867199862336E1     3.208809886543749E1    -1.215130107216442       5.066903373304080E1    -6.400712820256005E1     1.737741680689874E2    -2.843050292281121E1    -7.274280108287562E1
 2.280000000000000E9    -3.656884925623250E1     3.943424910406979E1    -1.208830811802082       4.532182412604347E1    -6.532386812084704E1     1.725032069487642E2    -2.769830410770750E1    -7.752558974260728E1
 2.290000000000000E9    -3.514351879731573E1     4.249819716194965E1    -1.197280403040172       3.999113567766749E1    -6.633958988471009E1     1.481433573955764E2    -2.712789868444372E1    -8.047496522522805E1
 2.300000000000000E9    -3.382055858307852E1     4.593928010803118E1    -1.178539919640028       3.455048965888795E1    -6.615378357505196E1     1.406785002105756E2    -2.667866949271272E1    -8.385674942088046E1
 2.310000000000000E9    -3.268309078355862E1     4.811684374380606E1    -1.168241944483997       2.900686764939651E1    -6.838340884919387E1     1.358324217083707E2    -2.612155751008063E1    -8.735262874380520E1
 2.320000000000000E9    -3.183797114167266E1     5.013241610358518E1    -1.164523761737262       2.343781075118970E1    -7.278020601136311E1     1.129710615912457E2    -2.579568667499219E1    -9.107599556544666E1
 2.330000000000000E9    -3.099714073361711E1     5.014727062332042E1    -1.168834928498991       1.788254021224365E1    -6.933785691082886E1     1.156212151770047E2    -2.538174945695982E1    -9.426836576374862E1
 2.340000000000000E9    -3.024040264145889E1     4.998403039344971E1    -1.202824692420479       1.242679875507790E1    -7.243487015857109E1     5.681581634304317E1    -2.523097639771155E1    -9.825762206894397E1
 2.350000000000000E9    -2.949750166987928E1     4.958409541779108E1    -1.235934402444401       7.050529829673655      -7.078320191067726E1     2.269321644612879E1    -2.478485034950439E1    -1.032863275699944E2
 2.360000000000000E9    -2.897569542996319E1     4.902390713072702E1    -1.235521001010074       1.830943272869735      -6.718916432986065E1     4.846195031318788E1    -2.457077103900882E1    -1.062839562420050E2
 2.370000000000000E9    -2.827444408343553E1     4.917106897347465E1    -1.243545529494758      -3.408220479176858      -6.473682776676549E1     3.470475567615966E1    -2.432400932936579E1    -1.104262140054447E2
 2.380000000000000E9    -2.779866603740607E1     4.848739680581886E1    -1.224641771282635      -8.640133468091827      -6.287331356440883E1     1.531731989711464E1    -2.407642451352264E1    -1.144176955127044E2
 2.390000000000000E9    -2.736023686636896E1     4.747442156778659E1    -1.199331994854478      -1.398643765117469E1    -6.145908217431308E1     9.574742767714174      -2.384533746514752E1    -1.179603129634130E2
 2.400000000000000E9    -2.695963621837614E1     4.663162342564178E1    -1.176542944481019      -1.945217932252675E1    -6.074920930662773E1    -6.843268767100630      -2.350986812932683E1    -1.210167959159710E2
 2.410000000000000E9    -2.651391702776532E1     4.608107695028752E1    -1.153773784610788      -2.496850671580301E1    -5.833591854577617E1    -1.732312374982185      -2.334652116160817E1    -1.244703859365900E2
 2.420000000000000E9    -2.612393960338080E1     4.411025910197274E1    -1.166942460112905      -3.060555135562070E1    -5.720804338592251E1    -1.887328982210543E1    -2.316130363868702E1    -1.284219000581406E2
 2.430000000000000E9    -2.582665721208854E1     4.342190355260954E1    -1.193342681013962      -3.619303640264878E1    -5.566145532053510E1    -1.634576160307627E1    -2.292602391010803E1    -1.316237402253416E2
 2.440000000000000E9    -2.548730333196216E1     4.192778243340450E1    -1.224108912358816      -4.158738222923687E1    -5.458931868400440E1    -3.068225262109915E1    -2.276932890684026E1    -1.350120986669862E2
 2.450000000000000E9    -2.519475666258236E1     4.086707205921874E1    -1.260188282455552      -4.683121219328033E1    -5.371864023505124E1    -3.971688700000157E1    -2.258895610361076E1    -1.388178536973864E2
 2.460000000000000E9    -2.481496495387900E1     3.869133614144120E1    -1.288601538654732      -5.201136084696884E1    -5.200922748803819E1    -4.970212621242347E1    -2.250878191730015E1    -1.424702614878452E2
 2.470000000000000E9    -2.459673855936892E1     3.796652487469456E1    -1.294568298986305      -5.709178240051030E1    -5.169452272290972E1    -5.504519668745227E1    -2.231765120367101E1    -1.464155540849030E2
 2.480000000000000E9    -2.432402246100704E1     3.680019938637699E1    -1.266391590471809      -6.230757452364733E1    -5.126732362672441E1    -6.806795795344546E1    -2.216773065695880E1    -1.507041159121108E2
 2.490000000000000E9    -2.407665496471951E1     3.522339121248382E1    -1.230007805101266      -6.759275573526065E1    -5.073411380810285E1    -7.997794786186000E1    -2.207815737103579E1    -1.545773385796096E2
 2.500000000000000E9    -2.386172742819140E1     3.428115251354871E1    -1.202797306384825      -7.303609524212462E1    -5.108276841882925E1    -8.445986531456623E1    -2.191413436841398E1    -1.583441776755373E2
 2.510000000000000E9    -2.369899178057107E1     3.258125834625508E1    -1.202444334287511      -7.860940179009303E1    -5.072062641897303E1    -9.593936241926671E1    -2.179443246739957E1    -1.618216842328811E2
 2.520000000000000E9    -2.344160498290430E1     3.142258399839231E1    -1.209951683791293      -8.416729932087225E1    -5.107472165603426E1    -1.001159272690546E2    -2.167251919286385E1    -1.658143780570030E2
 2.530000000000000E9    -2.327241455217289E1     3.007142479422805E1    -1.248109977061999      -8.961229654655565E1    -5.079117651350668E1    -1.055737827420744E2    -2.146957494971655E1    -1.688707587352325E2
 2.540000000000000E9    -2.311367428165931E1     2.916602450157239E1    -1.298905550201983      -9.489119876209271E1    -5.067277012491744E1    -1.093671309980099E2    -2.147650157442841E1    -1.721400261179282E2
 2.550000000000000E9    -2.298499931871195E1     2.735523288568749E1    -1.343003972561612      -1.000072761971705E2    -5.095995928979440E1    -1.157683473460790E2    -2.142684749406736E1    -1.757976702446906E2
 2.560000000000000E9    -2.278692229057486E1     2.593324923089552E1    -1.364061340961266      -1.050498187936127E2    -5.077536786808403E1    -1.192807549207611E2    -2.128011768857416E1    -1.796623725323111E2
 2.570000000000000E9    -2.264303372436341E1     2.475547425472486E1    -1.353998017824156      -1.100971800403847E2    -5.026166382535835E1    -1.238571478832265E2    -2.128820481448086E1     1.767715670015542E2
 2.580000000000000E9    -2.255465559091285E1     2.297716455994910E1    -1.310547357768532      -1.151473192744346E2    -4.969601532670150E1    -1.292115622321528E2    -2.120738617157232E1     1.734501325529207E2
 2.590000000000000E9    -2.234061644314479E1     2.179902764239246E1    -1.276265190313606      -1.204875025069401E2    -4.988770464387989E1    -1.317060542786203E2    -2.118478487457134E1     1.696304444625778E2
 2.600000000000000E9    -2.224227453367454E1     2.044529704578475E1    -1.237584878757555      -1.259073756924322E2    -4.922786735399303E1    -1.370766021154510E2    -2.111130370434288E1     1.658985410256520E2
 2.610000000000000E9    -2.203149315902978E1     1.954792271022681E1    -1.228241676163355      -1.314708181068518E2    -4.900233629094189E1    -1.416194930614137E2    -2.101079866282109E1     1.623199146095745E2
 2.620000000000000E9    -2.189850716651101E1     1.765642352452115E1    -1.250754250099424      -1.369789459497232E2    -4.848716972310436E1    -1.464010679158771E2    -2.099234575178860E1     1.590213692204233E2
 2.630000000000000E9    -2.172509826647750E1     1.686627960970805E1    -1.293999234707442      -1.423787006236333E2    -4.846203233233312E1    -1.513218058223007E2    -2.094942760538459E1     1.555066852850213E2
 2.640000000000000E9    -2.169355585027875E1     1.534976717539214E1    -1.349232909918095      -1.475906896220041E2    -4.845483647885942E1    -1.551403312721712E2    -2.085781476293540E1     1.518399892597372E2
 2.650000000000000E9    -2.159773830153181E1     1.431631933059445E1    -1.367439246501712      -1.525561932359006E2    -4.795823611040893E1    -1.611827971105222E2    -2.092774981878037E1     1.484262918479594E2
 2.660000000000000E9    -2.145815800053902E1     1.267001052159707E1    -1.365492793402480      -1.574566063589030E2    -4.733796785147247E1    -1.656234769689919E2    -2.090138196309148E1     1.449393398622692E2
 2.670000000000000E9    -2.139509430464292E1     1.154226068842356E1    -1.330444344304604      -1.623575288461091E2    -4.714210851834329E1    -1.687157920392027E2    -2.087473341298090E1     1.414973546674206E2
 2.680000000000000E9    -2.124183151951167E1     9.474021416845979      -1.265530885035952      -1.675228503981272E2    -4.699646615012894E1    -1.760196229126904E2    -2.093420869514097E1     1.379302107368634E2
 2.690000000000000E9    -2.111106900918672E1     8.071994954169401      -1.206684636146112      -1.729463845746569E2    -4.663754399569183E1     1.784169986407997E2    -2.096485441289823E1     1.343454485306942E2
 2.700000000000000E9    -2.103047655350348E1     6.342617965228032      -1.160409388816429      -1.785722876199053E2    -4.603653304916933E1     1.738102854164220E2    -2.098324164176166E1     1.305518900665537E2
 2.710000000000000E9    -2.088030651231776E1     4.903224549674304      -1.165167226133482       1.757113352832608E2    -4.600524114673296E1     1.672111724046218E2    -2.100319200413555E1     1.269458977788846E2
 2.720000000000000E9    -2.076315684288932E1     3.253695473917168      -1.194406506059724       1.701356542954983E2    -4.558797946569642E1     1.619396959313760E2    -2.103177040299627E1     1.240391299866662E2
 2.730000000000000E9    -2.065512740008717E1     1.796134420378488      -1.246451094697904       1.647791161597245E2    -4.533050031903231E1     1.561509488053894E2    -2.102281721996765E1     1.202296401244909E2
 2.740000000000000E9    -2.059614267273042E1     2.283009127815449E-1   -1.299711621843074       1.595986478057355E2    -4.507184851640546E1     1.499437769406013E2    -2.107531483463041E1     1.170432863744219E2
 2.750000000000000E9    -2.048579702196107E1    -1.224584901723630      -1.322808640570606       1.546297476659605E2    -4.493150377175888E1     1.441441464085422E2    -2.107431511629665E1     1.136195627197655E2
 2.760000000000000E9    -2.038996500148214E1    -2.941523782488737      -1.301949567249929       1.496804715388143E2    -4.475122545698507E1     1.389114762391529E2    -2.113971070154936E1     1.100833730697447E2
 2.770000000000000E9    -2.032958303304397E1    -4.928611386047452      -1.260459870942935       1.447093050977770E2    -4.443028690897173E1     1.334661068770663E2    -2.126631549223271E1     1.066670476466367E2
 2.780000000000000E9    -2.027610663948181E1    -6.397917806658921      -1.194302858066438       1.394262589309372E2    -4.443718368475291E1     1.257062038743485E2    -2.135918441866253E1     1.025447890151607E2
 2.790000000000000E9    -2.020380839595436E1    -8.042233743977278      -1.158075921373572       1.339025951869923E2    -4.408106767796274E1     1.206542442314148E2    -2.145487565450786E1     9.894157517980547E1
 2.800000000000000E9    -2.013634333504332E1    -1.045675663733975E1    -1.133040844324993       1.282572717470087E2    -4.402017804038998E1     1.137431399214612E2    -2.144494557084920E1     9.535656437134470E1
 2.810000000000000E9    -2.006783379683812E1    -1.242487862690532E1    -1.148933909641765       1.225788675933902E2    -4.375810521430998E1     1.062617192163647E2    -2.163866315800006E1     9.144237234414270E1
 2.820000000000000E9    -1.998587684355556E1    -1.440402422441880E1    -1.195824661892223       1.171924646792029E2    -4.384214425100710E1     1.001272303849365E2    -2.176335615486472E1     8.711797705822700E1
 2.830000000000000E9    -2.000832597439761E1    -1.635019806575876E1    -1.259073129646301       1.119761081011278E2    -4.386570477323090E1     9.265183030843338E1    -2.189840798747344E1     8.284755302279606E1
 2.840000000000000E9    -1.987472977198781E1    -1.823814149536626E1    -1.284571090256236       1.069433687432825E2    -4.401566291745637E1     8.891238203375966E1    -2.211819565416086E1     7.917359715375387E1
 2.850000000000000E9    -1.979507287874437E1    -2.052113215980077E1    -1.284855527724920       1.020509649399796E2    -4.430817264985868E1     8.417275723904947E1    -2.228919110606891E1     7.560408126356822E1
 2.860000000000000E9    -1.981413854006966E1    -2.272753504853316E1    -1.253126537319284       9.705418857685559E1    -4.374310819074542E1     8.005518443494365E1    -2.249942000953019E1     7.275953386564112E1
 2.870000000000000E9    -1.977081603118238E1    -2.482665751785806E1    -1.200906735391142       9.191259534023203E1    -4.359720726111020E1     7.522699034882122E1    -2.260870381008328E1     6.849012283322101E1
 2.880000000000000E9    -1.978867064311494E1    -2.663415550579478E1    -1.144010434154329       8.653413191899944E1    -4.359643695975720E1     7.016321057086795E1    -2.287447619141045E1     6.498410215447579E1
 2.890000000000000E9    -1.979467277740295E1    -2.921805906395616E1    -1.104676154516139       8.098286696357890E1    -4.325277924624476E1     6.438126099075770E1    -2.310610641495920E1     6.099551814772946E1
 2.900000000000000E9    -1.978583664996916E1    -3.146665808641870E1    -1.108277865670347       7.536415802424301E1    -4.317025748285528E1     5.876376809372937E1    -2.332085591973203E1     5.677864427005011E1
 2.910000000000000E9    -1.979519017272580E1    -3.383728408059711E1    -1.137323904267104       6.980915402219709E1    -4.309945846643845E1     5.324954222384073E1    -2.373577309175090E1     5.198570162793694E1
