#  HZ   S   DB   R     50.00 
! Rohde & Schwarz Vector Network Analyzer 
! Rohde-Schwarz,ZNB40-4Port,1311601084101506,3.12
! Created: UTC 11/24/2023, 1:33:16 PM
! freq[Hz]                db:S11                  ang:S11                 db:S21                  ang:S21                 db:S12                  ang:S12                 db:S22                  ang:S22
 2.000000000000000E9    -2.057106015523814E1    -5.886965942071249E1    -8.871530949074959E-1   -4.758096458653783      -4.071599020954643E1     1.422061235344345E2    -2.244118794389238E1    -6.737320420584352E1
 2.010000000000000E9    -2.108708355452824E1    -6.053320215669837E1    -8.671907402995540E-1   -9.591993607738628      -4.123026862954862E1     1.383996656684515E2    -2.303848780788198E1    -6.871672276157865E1
 2.020000000000000E9    -2.167945872695659E1    -6.176187573384505E1    -8.401293079671643E-1   -1.439716461166853E1    -4.158265548184592E1     1.338228739309573E2    -2.371982797878495E1    -7.082385564648494E1
 2.030000000000000E9    -2.223768621975199E1    -6.302354841550741E1    -8.236489926719898E-1   -1.924321410692738E1    -4.219200773803279E1     1.306937230280923E2    -2.432870626645671E1    -7.251260142739305E1
 2.040000000000000E9    -2.278355883931798E1    -6.381484816315410E1    -8.036354916287483E-1   -2.398664271029579E1    -4.282607436152790E1     1.253792348196796E2    -2.502051679151396E1    -7.418014539799682E1
 2.050000000000000E9    -2.336250404144856E1    -6.508165201428055E1    -7.849521440599884E-1   -2.876838016607000E1    -4.338456396993816E1     1.226305690695907E2    -2.569645886284002E1    -7.560767311148706E1
 2.060000000000000E9    -2.399365785476884E1    -6.594892095049786E1    -7.727832587100250E-1   -3.348493533751162E1    -4.379744273337958E1     1.178088779644394E2    -2.648581017647943E1    -7.720434218463495E1
 2.070000000000000E9    -2.463746713835436E1    -6.666740092297897E1    -7.551071056503411E-1   -3.831141123406061E1    -4.447082186293470E1     1.140043971258060E2    -2.728508681342585E1    -7.822326164557207E1
 2.080000000000000E9    -2.527770655664022E1    -6.710466514192723E1    -7.469862016851467E-1   -4.306346195567635E1    -4.503185368592163E1     1.106534130144873E2    -2.830088111174856E1    -7.904081405278099E1
 2.090000000000000E9    -2.616313400402834E1    -6.680464411186951E1    -7.316778038779387E-1   -4.786537232351337E1    -4.574082360859012E1     1.062736912138482E2    -2.928363232360553E1    -8.119405518481307E1
 2.100000000000000E9    -2.686614015701271E1    -6.745209611156898E1    -7.258525142763500E-1   -5.257147632568433E1    -4.629487804257040E1     1.025392134567148E2    -3.043125086394386E1    -8.094435674296412E1
 2.110000000000000E9    -2.774198863407563E1    -6.742173473853514E1    -7.143996071511866E-1   -5.732087460840307E1    -4.682222976277536E1     1.017239024725281E2    -3.159852769971330E1    -8.272943301489516E1
 2.120000000000000E9    -2.872179979480518E1    -6.601450778887451E1    -7.013466458442696E-1   -6.208232967292074E1    -4.745279848403614E1     9.655699940753607E1    -3.310073549283265E1    -8.473089640643607E1
 2.130000000000000E9    -2.968857324278882E1    -6.558338984153212E1    -6.867522404722898E-1   -6.675425265404313E1    -4.799389479868402E1     9.459360153922736E1    -3.483434422604456E1    -8.576357856903114E1
 2.140000000000000E9    -3.079797689699834E1    -6.413886311569431E1    -6.776016966082488E-1   -7.140516893058376E1    -4.868771864535756E1     9.041321444116913E1    -3.658354946307242E1    -8.604046548239798E1
 2.150000000000000E9    -3.196771207453352E1    -6.003752479531644E1    -6.756778421752486E-1   -7.613331708813146E1    -4.936194957510416E1     8.816772425514438E1    -3.885611634841338E1    -8.443618731064517E1
 2.160000000000000E9    -3.297090210926013E1    -5.709196089077248E1    -6.673751702114927E-1   -8.078796874968015E1    -5.023729649383923E1     8.311144832359994E1    -4.219709203856446E1    -7.907580656287534E1
 2.170000000000000E9    -3.413305164335460E1    -5.184506611145670E1    -6.601249928911113E-1   -8.540955188664422E1    -5.100058921884220E1     8.117866790008334E1    -4.740158992500594E1    -7.932804250075799E1
 2.180000000000000E9    -3.501502856920275E1    -4.521160688984456E1    -6.544721293319072E-1   -9.008538203357691E1    -5.200086967179824E1     7.994507840748962E1    -5.605409041081057E1    -3.765126387625995E1
 2.190000000000000E9    -3.639203183246671E1    -3.403998403214986E1    -6.486962363525673E-1   -9.472719107184732E1    -5.191008719749548E1     8.031104221427212E1    -4.991408585981201E1     4.318451783264823E1
 2.200000000000000E9    -3.688581709160899E1    -2.266256939015239E1    -6.417804502648095E-1   -9.938596953633024E1    -5.307539706552501E1     7.303743938578491E1    -4.436106992686229E1     6.548130030246978E1
 2.210000000000000E9    -3.698945334511386E1    -9.393373469089425      -6.362650350358683E-1   -1.040292692647701E2    -5.391819995742551E1     7.587771557379988E1    -4.026533422192902E1     6.772042031303955E1
 2.220000000000000E9    -3.631093690035855E1     3.211953126805980      -6.393345356706780E-1   -1.087075878128993E2    -5.553266648509691E1     7.141039580173714E1    -3.789874659151631E1     6.835773077137536E1
 2.230000000000000E9    -3.569695369817786E1     1.417651112800286E1    -6.371604575711108E-1   -1.133289123040119E2    -5.547949757969886E1     7.256837750278328E1    -3.576970519855320E1     6.816863241425395E1
 2.240000000000000E9    -3.476340099602727E1     2.139830832395754E1    -6.269590053497055E-1   -1.179779483129026E2    -5.617230653793747E1     7.545109979794725E1    -3.411554653013671E1     6.821801152453072E1
 2.250000000000000E9    -3.364345493162833E1     2.637085270717993E1    -6.313776107398985E-1   -1.226288771753061E2    -5.738242899914096E1     7.916378548154302E1    -3.296681460926933E1     6.798902202238884E1
 2.260000000000000E9    -3.263639119145238E1     3.207726809939677E1    -6.331636256586569E-1   -1.272708665911153E2    -5.832103699946924E1     7.375460679898613E1    -3.183228083468153E1     6.619470867190773E1
 2.270000000000000E9    -3.169025390501935E1     3.486285231014777E1    -6.308448195084461E-1   -1.318722734366614E2    -5.855510853681758E1     7.716819106610217E1    -3.088039739982241E1     6.569386887100730E1
 2.280000000000000E9    -3.090860842374701E1     3.620509966055504E1    -6.271773739527216E-1   -1.364977636997612E2    -5.943881479693833E1     8.253714878051559E1    -3.013453082094784E1     6.317097303641464E1
 2.290000000000000E9    -3.004599242518648E1     3.858298456626886E1    -6.308790493621287E-1   -1.411377061416221E2    -6.148372859868459E1     9.475677382906586E1    -2.926242231642056E1     6.165002949792411E1
 2.300000000000000E9    -2.930389445115826E1     3.758930666459658E1    -6.305397126769405E-1   -1.457646956340215E2    -6.106982411101179E1     9.986372001243761E1    -2.858147613475802E1     6.062236916939212E1
 2.310000000000000E9    -2.865622231174135E1     3.803195618936746E1    -6.327056883473587E-1   -1.504429173193789E2    -6.176719921020470E1     1.226232082394825E2    -2.791006170398190E1     5.897015216892721E1
 2.320000000000000E9    -2.809093582254750E1     3.838453116362542E1    -6.351665970757592E-1   -1.551120764845883E2    -6.040494150421672E1     1.240597278340246E2    -2.727727574314573E1     5.738392508294626E1
 2.330000000000000E9    -2.748705499498437E1     3.744377992112740E1    -6.461812636676879E-1   -1.597304014543143E2    -5.862750455174343E1     1.306491229147095E2    -2.681274318056082E1     5.573209136472295E1
 2.340000000000000E9    -2.697856838685589E1     3.743483240393226E1    -6.438601734579532E-1   -1.643654071611436E2    -5.646227050970900E1     1.320986041558298E2    -2.635496456147523E1     5.466145205639337E1
 2.350000000000000E9    -2.658720491883832E1     3.718241205039291E1    -6.513753404415970E-1   -1.690087378852231E2    -5.573235562743378E1     1.346976660500054E2    -2.593224720366715E1     5.309014696922353E1
 2.360000000000000E9    -2.607580747595068E1     3.662854419532650E1    -6.542310726280780E-1   -1.735699253989165E2    -5.478854012843744E1     1.335476415227460E2    -2.551479197013455E1     5.147451974898546E1
 2.370000000000000E9    -2.559078830581165E1     3.622839301268752E1    -6.507894669491934E-1   -1.781049278349805E2    -5.344441443701279E1     1.296790301659919E2    -2.515010883398655E1     4.982076376660051E1
 2.380000000000000E9    -2.523030457176893E1     3.463937006177217E1    -6.586649102350501E-1    1.773149126285675E2    -5.210276689192841E1     1.213842678862385E2    -2.474321237424773E1     4.845401016488749E1
 2.390000000000000E9    -2.483489462216778E1     3.393834272609150E1    -6.695641208283702E-1    1.727330866560138E2    -5.223691046896907E1     1.164381835402277E2    -2.448924521452147E1     4.655272768899874E1
 2.400000000000000E9    -2.459054012713476E1     3.323541712956659E1    -6.727398882165783E-1    1.681839092042225E2    -5.129138047196085E1     1.129546453452962E2    -2.410208096104449E1     4.462077850833628E1
 2.410000000000000E9    -2.427775841637744E1     3.261331771387871E1    -6.760063491906956E-1    1.637058023211525E2    -5.084337191278885E1     1.062353266610706E2    -2.386545871424195E1     4.290894153638969E1
 2.420000000000000E9    -2.388971754283314E1     3.089160897749759E1    -6.869219216051528E-1    1.592095351976446E2    -5.058245821476930E1     1.000060741580792E2    -2.348308937782850E1     4.159861248213210E1
 2.430000000000000E9    -2.374415121644835E1     2.961549554824986E1    -6.962984325050818E-1    1.546741626106031E2    -5.047885196520213E1     9.520380718279405E1    -2.316817878913190E1     3.999580657550034E1
 2.440000000000000E9    -2.344458218883995E1     2.867248099543212E1    -7.044389249733145E-1    1.501343216639339E2    -5.057783510244044E1     8.834214619807734E1    -2.291906073953655E1     3.869857302836213E1
 2.450000000000000E9    -2.314905272622043E1     2.769765194308205E1    -7.067832278583639E-1    1.456725846078479E2    -5.074003102149041E1     8.308064907596622E1    -2.269767894709380E1     3.770059938359972E1
 2.460000000000000E9    -2.284572226628271E1     2.642781217610004E1    -7.136619557955581E-1    1.411644701771206E2    -5.042482161602714E1     7.801131479697722E1    -2.255207851949407E1     3.581162139203652E1
 2.470000000000000E9    -2.268198125776660E1     2.513718752916814E1    -7.219084784279430E-1    1.366813796162459E2    -5.057986822300047E1     7.491789914234799E1    -2.237235612356693E1     3.423650932165035E1
 2.480000000000000E9    -2.246414087615875E1     2.412600875131477E1    -7.291711967239896E-1    1.322258784119957E2    -5.069627279839772E1     7.483678427731867E1    -2.217663663292897E1     3.244047389239503E1
 2.490000000000000E9    -2.223045990133530E1     2.273511420562819E1    -7.361884044517273E-1    1.277816813197407E2    -5.060175603917334E1     6.842556047744874E1    -2.199828420950983E1     3.098576733393834E1
 2.500000000000000E9    -2.207940883467415E1     2.143124674755874E1    -7.350913470159915E-1    1.232737768734780E2    -5.026790913471863E1     6.509729646493530E1    -2.189038438238857E1     2.940098636098393E1
 2.510000000000000E9    -2.185941883772197E1     2.066891974444428E1    -7.471676396377674E-1    1.188154066811697E2    -5.071440087902473E1     6.289887108926838E1    -2.163669307833361E1     2.724956904343856E1
 2.520000000000000E9    -2.173074164198764E1     1.960290936292508E1    -7.521307916227306E-1    1.143307634412323E2    -5.040857066539633E1     5.571961914635377E1    -2.144087854786765E1     2.596598255061483E1
 2.530000000000000E9    -2.155704906878895E1     1.775801789468286E1    -7.533693596073014E-1    1.097835330480783E2    -5.077720140295703E1     5.524975056424998E1    -2.119885887930885E1     2.384018368625515E1
 2.540000000000000E9    -2.140046176884944E1     1.687359655513073E1    -7.625325586854566E-1    1.053000441047190E2    -5.043845151988264E1     5.022358916470336E1    -2.107548299757273E1     2.286164896462208E1
 2.550000000000000E9    -2.130624518903648E1     1.591316391591539E1    -7.695425139858774E-1    1.008532439252060E2    -5.070226272282674E1     5.001393746008603E1    -2.096456067807095E1     2.191740492965850E1
 2.560000000000000E9    -2.112608806406520E1     1.465849258978324E1    -7.720179094759898E-1    9.637503574498027E1    -5.035495062827673E1     4.722903545612311E1    -2.081618313835874E1     2.046388651516511E1
 2.570000000000000E9    -2.097504651026780E1     1.384124712347046E1    -7.730717807406989E-1    9.197738791606714E1    -5.068392033575522E1     4.248128418452585E1    -2.077130917724239E1     1.945826976793400E1
 2.580000000000000E9    -2.082498303465949E1     1.257706903726853E1    -7.768391406827059E-1    8.749841849009240E1    -5.117761072144631E1     4.303636493219314E1    -2.066623205626570E1     1.771102492292989E1
 2.590000000000000E9    -2.063782704755941E1     1.129860073899038E1    -7.831857306219729E-1    8.311266475004705E1    -5.077470368723490E1     3.846845843236982E1    -2.056698404951358E1     1.612445098777804E1
 2.600000000000000E9    -2.047592315334574E1     1.020334141191702E1    -7.867714754705781E-1    7.865552427403843E1    -5.093367657714132E1     3.670632782815846E1    -2.051715712762542E1     1.455890076010271E1
 2.610000000000000E9    -2.039603431209065E1     9.144590382804262      -7.827197186833723E-1    7.425159131229847E1    -5.077076251257879E1     3.407437612849521E1    -2.035628086618592E1     1.268925838848673E1
 2.620000000000000E9    -2.025434863068046E1     7.900077603818584      -7.866246890587834E-1    6.975205524130843E1    -5.027104926268613E1     3.517679922503688E1    -2.027254578964595E1     1.105541829386541E1
 2.630000000000000E9    -2.018759084750960E1     6.547918295088789      -7.908044074291504E-1    6.527314887412494E1    -5.028516975716764E1     3.457121718117153E1    -2.013820181026692E1     9.209378728594427
 2.640000000000000E9    -2.005138592336265E1     5.374227276373696      -7.877886816275550E-1    6.084332500691200E1    -4.997209455163359E1     3.152266529237355E1    -1.998979727816138E1     7.924739520395783
 2.650000000000000E9    -1.988470676662307E1     3.896687783511820      -7.997152108396399E-1    5.640020345782435E1    -4.985635957663210E1     2.739249921138113E1    -1.985530390170505E1     6.796243780090033
 2.660000000000000E9    -1.981297231627901E1     2.678862359361998      -7.938792289883259E-1    5.198579282942265E1    -4.958776361571790E1     2.632194363138760E1    -1.977227500190942E1     5.384526727574074
 2.670000000000000E9    -1.968389811379963E1     1.373569376473455      -7.986295143423920E-1    4.751852971712322E1    -4.937457521712054E1     2.117630344839257E1    -1.970819083906817E1     4.236157979272788
 2.680000000000000E9    -1.956628427483507E1     8.767864622193076E-2   -7.895634224177071E-1    4.309527945616404E1    -4.949654148335370E1     1.820395589026933E1    -1.964252404878825E1     2.762508532333240
 2.690000000000000E9    -1.945849845778159E1    -1.208186146744263      -7.927960029368970E-1    3.869417627079382E1    -4.911889182098773E1     1.541325471776118E1    -1.960953086098443E1     1.097497709207204
 2.700000000000000E9    -1.933887703887002E1    -2.547921748220256      -7.881616593739551E-1    3.430707815240829E1    -4.880601065816041E1     1.229826438666128E1    -1.960579040555933E1    -3.840836646387173E-1
 2.710000000000000E9    -1.919990479173449E1    -3.843901497355853      -7.930898643154526E-1    2.980894430928101E1    -4.843612305459301E1     8.525204025449675      -1.960335733248653E1    -2.140636222071134
 2.720000000000000E9    -1.911366440265796E1    -5.563472322214127      -7.862415348818176E-1    2.539908678954815E1    -4.832064769521071E1     6.571100898598148      -1.953271568342759E1    -4.365308092622951
 2.730000000000000E9    -1.901479282873015E1    -6.617570341435661      -7.825934600673411E-1    2.096834985710033E1    -4.810629087269880E1     1.805884397299199      -1.948811339614679E1    -5.910391047759288
 2.740000000000000E9    -1.890436853153649E1    -8.083742899605063      -7.819559730025614E-1    1.656892921493319E1    -4.768356249729257E1     3.689345944966513E-1   -1.937378972399117E1    -7.788907654660490
 2.750000000000000E9    -1.883012121415281E1    -9.877462377958500      -7.805643059680816E-1    1.213630097522612E1    -4.767779067833619E1    -3.072387730054114      -1.930645170746764E1    -9.226812198465691
 2.760000000000000E9    -1.873682791967022E1    -1.124675410200228E1    -7.762981934040110E-1    7.735330179451928      -4.736427783119109E1    -7.756468711732405      -1.927239083942983E1    -1.087732169526316E1
 2.770000000000000E9    -1.865553687608006E1    -1.276582081608165E1    -7.697678172000020E-1    3.370719307387010      -4.749896062234960E1    -1.156078062662450E1    -1.915572226623788E1    -1.191312709687761E1
 2.780000000000000E9    -1.853111538599606E1    -1.428544384702576E1    -7.625122633485306E-1   -9.787556234211118E-1   -4.722637355036489E1    -1.574747394003293E1    -1.917390049334446E1    -1.326846112151627E1
 2.790000000000000E9    -1.846364223051778E1    -1.626188139518196E1    -7.646146664127630E-1   -5.318640282973826      -4.687345250390510E1    -1.826855284851318E1    -1.914887542251324E1    -1.470840678097329E1
 2.800000000000000E9    -1.837901574358707E1    -1.766131601912643E1    -7.569641986327634E-1   -9.758343246352318      -4.678159227028399E1    -2.259966619595062E1    -1.919314092801326E1    -1.638100278471256E1
 2.810000000000000E9    -1.829811650472077E1    -1.969835211204740E1    -7.509032628412207E-1   -1.416543577982890E1    -4.657314476537355E1    -2.749464774560394E1    -1.923653636896414E1    -1.796168510266201E1
 2.820000000000000E9    -1.821968599962872E1    -2.185698526422429E1    -7.453404453102269E-1   -1.855296174772274E1    -4.688808917970567E1    -2.990060847821616E1    -1.928856403665771E1    -2.026688034466206E1
 2.830000000000000E9    -1.816616096193692E1    -2.367134678158639E1    -7.425637101305548E-1   -2.294141424780562E1    -4.658587030600997E1    -3.138437927742170E1    -1.925733895003843E1    -2.252242632506120E1
 2.840000000000000E9    -1.810129792018934E1    -2.533910152448017E1    -7.431540835915973E-1   -2.733687426807751E1    -4.618728052303874E1    -3.425390615987317E1    -1.916186007642748E1    -2.446777555265460E1
 2.850000000000000E9    -1.805804699473651E1    -2.725284428789305E1    -7.273578029221557E-1   -3.169868791914427E1    -4.574916610321960E1    -3.849210674476190E1    -1.914654289829533E1    -2.645548314239228E1
 2.860000000000000E9    -1.802712409967270E1    -2.907172609020697E1    -7.185221523002514E-1   -3.617489848451880E1    -4.545882227210158E1    -4.304315446537078E1    -1.910196370682977E1    -2.833941900547544E1
 2.870000000000000E9    -1.800056985877621E1    -3.083619084317030E1    -7.146840084328349E-1   -4.056988214011484E1    -4.525584504159387E1    -4.746709618476251E1    -1.906945995342162E1    -2.994935530681956E1
 2.880000000000000E9    -1.794719902575007E1    -3.299508662630686E1    -7.047858197938695E-1   -4.500318936715660E1    -4.502954095350457E1    -5.192536423362522E1    -1.910243408751663E1    -3.133962793076896E1
 2.890000000000000E9    -1.796303315803420E1    -3.471429578843210E1    -6.975359598359450E-1   -4.939251327629113E1    -4.479073517504950E1    -5.607707409737375E1    -1.913421221648144E1    -3.268646921531133E1
 2.900000000000000E9    -1.789346515642526E1    -3.674408973195954E1    -6.952133317645348E-1   -5.377787840273838E1    -4.448414978255148E1    -5.983646744478258E1    -1.922629739575460E1    -3.450712090631590E1
 2.910000000000000E9    -1.786435848361463E1    -3.893727994437234E1    -6.801976039713109E-1   -5.825883164315977E1    -4.444958035121235E1    -6.572929159240761E1    -1.925641537929591E1    -3.640237069672366E1
