#  HZ   S   DB   R     50.00 
! Rohde & Schwarz Vector Network Analyzer 
! Rohde-Schwarz,ZNB40-4Port,1311601084101506,3.12
! Created: UTC 11/24/2023, 1:25:45 PM
! freq[Hz]                db:S11                  ang:S11                 db:S21                  ang:S21                 db:S12                  ang:S12                 db:S22                  ang:S22
 2.000000000000000E9    -4.468268420397958E1     1.236543987269279E2    -1.545235332131565      -8.975930955719721E1    -1.548316399149723      -9.000993640598421E1    -2.235812391560584E1    -1.516320847723035E2
 2.010000000000000E9    -3.589943727732497E1     6.050718447185063E1    -1.557405033359312      -1.226470729015408E2    -1.556528979994807      -1.228262656087008E2    -2.170494984190181E1    -1.519721734363225E2
 2.020000000000000E9    -3.319880027699350E1     1.852206938881565E1    -1.549560239300400      -1.555261733675459E2    -1.558589821835096      -1.556780616777846E2    -2.137433923787630E1    -1.575862644607344E2
 2.030000000000000E9    -3.335865729529172E1    -1.923038192718637E1    -1.556628334727659       1.716315784190905E2    -1.566500120168634       1.714721426571406E2    -2.171270884392996E1    -1.634810066264015E2
 2.040000000000000E9    -3.641757500705852E1    -6.137736369448977E1    -1.559341836224955       1.388182792328674E2    -1.566752439574283       1.386080508430748E2    -2.250900324676331E1    -1.657175268138427E2
 2.050000000000000E9    -4.539032511098722E1    -1.401835471403456E2    -1.567735434569469       1.059728927422132E2    -1.570602276464916       1.057350466275117E2    -2.292896020562559E1    -1.623729736974428E2
 2.060000000000000E9    -3.885585514594094E1     8.814963909401018E1    -1.575422499428504       7.309885716803340E1    -1.576362444428804       7.286929203609644E1    -2.240215301065285E1    -1.596894664585726E2
 2.070000000000000E9    -3.315073779697413E1     4.056959161564675E1    -1.578215919806568       4.028171709108257E1    -1.589990796490237       4.005924263910201E1    -2.166494846838850E1    -1.627231482909824E2
 2.080000000000000E9    -3.163545617488486E1    -6.395863303691721E-1   -1.592455748670883       7.434934805887957      -1.593072212717626       7.244442227956323      -2.145953624470373E1    -1.686553267641854E2
 2.090000000000000E9    -3.257017240041981E1    -4.171436790596927E1    -1.597414053345302      -2.549838102091818E1    -1.598164285735895      -2.550309792994099E1    -2.207908321899034E1    -1.737860810817478E2
 2.100000000000000E9    -3.723959306610744E1    -9.574633404197972E1    -1.604007264680622      -5.835686554140467E1    -1.605668436023937      -5.831545557209200E1    -2.289508163994860E1    -1.728592293567333E2
 2.110000000000000E9    -4.091573935438761E1     1.488204630710826E2    -1.606884177377180      -9.119533132115254E1    -1.607617558620835      -9.109869967679579E1    -2.300314906589190E1    -1.685285646266588E2
 2.120000000000000E9    -3.410416249867224E1     6.921012245584556E1    -1.612348231797387      -1.240328144299445E2    -1.616578880550697      -1.238907580835356E2    -2.235706601317797E1    -1.677064897558151E2
 2.130000000000000E9    -3.109775998483852E1     2.462938130069256E1    -1.623172536272382      -1.568350466099559E2    -1.620168286529105      -1.567680136431328E2    -2.190043855456218E1    -1.721200467574498E2
 2.140000000000000E9    -3.056576531986345E1    -1.585007256291982E1    -1.631372213840411       1.703589246745716E2    -1.627708912302673       1.704488138750459E2    -2.213190173505408E1    -1.786714403908203E2
 2.150000000000000E9    -3.296444818740773E1    -5.952283078835158E1    -1.635407344758240       1.375428778213285E2    -1.634900480774595       1.376585679962555E2    -2.289852278154768E1     1.779968591207268E2
 2.160000000000000E9    -3.994138268119409E1    -1.230330548192313E2    -1.632360480862722       1.047137220875378E2    -1.636558269766718       1.048374437254936E2    -2.370005007701498E1     1.799203896158837E2
 2.170000000000000E9    -3.831076486834523E1     1.069478689273356E2    -1.636876157194880       7.194718175317955E1    -1.637518267900443       7.198622824546642E1    -2.347058431927230E1    -1.755517640625605E2
 2.180000000000000E9    -3.270923577074515E1     4.656360594549943E1    -1.646679640307608       3.912960823293713E1    -1.646908667715911       3.912448993238873E1    -2.265724661385201E1    -1.768325534661303E2
 2.190000000000000E9    -3.103542906654305E1     1.611888736826951      -1.647030508802679       6.307730613464864      -1.642933855176894       6.255986252507699      -2.213754005038175E1     1.783606747838503E2
 2.200000000000000E9    -3.199986126936740E1    -4.262945027660234E1    -1.644508250393775      -2.650116819655221E1    -1.652107676426172      -2.652271955828182E1    -2.251060423248578E1     1.735110426556625E2
 2.210000000000000E9    -3.613448388885787E1    -9.764188471698817E1    -1.642676667656196      -5.936941223855240E1    -1.647814210511351      -5.938851859551708E1    -2.322842187899220E1     1.726636346942231E2
 2.220000000000000E9    -3.958590051948156E1     1.540295031642113E2    -1.648895179098807      -9.219429616236748E1    -1.655246598433661      -9.223388572085157E1    -2.347663306002399E1     1.765017818983776E2
 2.230000000000000E9    -3.362775240444567E1     7.262872809087283E1    -1.660578840208362      -1.250301618377607E2    -1.655397468793025      -1.250800459322490E2    -2.283319563744085E1     1.784539626964051E2
 2.240000000000000E9    -3.020115880079782E1     2.627514117554728E1    -1.663007297716407      -1.579060927136732E2    -1.662989699882682      -1.578512985469524E2    -2.224839748462138E1     1.745197298830099E2
 2.250000000000000E9    -2.977704452207293E1    -1.560434230072218E1    -1.671101278600664       1.692764791826582E2    -1.675131721420394       1.692650358991082E2    -2.231978858302594E1     1.672993611963914E2
 2.260000000000000E9    -3.181060760605321E1    -6.065647160785207E1    -1.677891446417321       1.364401071322558E2    -1.678700909517074       1.364527844893640E2    -2.309000441094176E1     1.620382447925082E2
 2.270000000000000E9    -3.738366522450661E1    -1.212856525569908E2    -1.676632031699508       1.036477526590342E2    -1.678628653891521       1.035723232927322E2    -2.389431638165739E1     1.625537089775896E2
 2.280000000000000E9    -3.818986814337492E1     1.184779039783133E2    -1.684234834391709       7.077593666768951E1    -1.683646287585870       7.075337384213101E1    -2.404398286628567E1     1.656297483500888E2
 2.290000000000000E9    -3.200029078744607E1     5.410030970800346E1    -1.692369517347748       3.793020358772890E1    -1.694176333630435       3.797856370660563E1    -2.343995705151285E1     1.666550232666743E2
 2.300000000000000E9    -2.993368342068525E1     6.202676194724016      -1.702868623691900       5.161431361845556      -1.699799136268255       5.172743970369623      -2.293755199015987E1     1.632433613103093E2
 2.310000000000000E9    -3.059709320391630E1    -3.756794113697649E1    -1.703833472373321      -2.762142299930243E1    -1.708313106164640      -2.759984980535787E1    -2.321286137134464E1     1.580442557891647E2
 2.320000000000000E9    -3.394799193632935E1    -9.108612197187296E1    -1.708338894968600      -6.045464550601393E1    -1.707589204961813      -6.035497549208035E1    -2.390705181655203E1     1.559499614019015E2
 2.330000000000000E9    -3.865959857630059E1     1.748444634665778E2    -1.707427800953960      -9.322854593312628E1    -1.710002158361820      -9.317449226287052E1    -2.442119829908982E1     1.603633564351875E2
 2.340000000000000E9    -3.391209244377136E1     8.232866916530718E1    -1.708651017638077      -1.260911743307090E2    -1.714408379751290      -1.259502239620038E2    -2.406955624972219E1     1.637421245304369E2
 2.350000000000000E9    -3.033517142388453E1     2.827713903638108E1    -1.716728585516879      -1.588841649702505E2    -1.718521691974942      -1.587109191189085E2    -2.343304233730055E1     1.619810134598468E2
 2.360000000000000E9    -3.008588154819030E1    -1.605515967038053E1    -1.709786169943857       1.682680046881807E2    -1.708863985566100       1.684580392210291E2    -2.327701142209946E1     1.563110851609792E2
 2.370000000000000E9    -3.215126040517023E1    -6.228131299266986E1    -1.707509141114054       1.354978276671433E2    -1.707373591555637       1.356853615572775E2    -2.379950725006239E1     1.512553972163927E2
 2.380000000000000E9    -3.772278686815155E1    -1.285175482753660E2    -1.708220052810597       1.026047234703863E2    -1.709570928167494       1.028271905065704E2    -2.452239463563158E1     1.513247787841603E2
 2.390000000000000E9    -3.697840671794859E1     1.114235948647500E2    -1.712587801128656       6.976317671318222E1    -1.712877710915287       6.999934615175826E1    -2.455432930890307E1     1.548317721242173E2
 2.400000000000000E9    -3.136679861639044E1     5.170801647272902E1    -1.712737712317729       3.692421604401357E1    -1.718658724056742       3.718141156673121E1    -2.367811491292849E1     1.551200299177136E2
 2.410000000000000E9    -2.938186519045724E1     6.403187743938437      -1.724194360524053       4.063292322804109      -1.719883274535837       4.368194742882178      -2.293093875753387E1     1.504390364654304E2
 2.420000000000000E9    -2.988136651847835E1    -3.438023822540671E1    -1.714467340479193      -2.881211857151812E1    -1.721656989758534      -2.841510678292232E1    -2.300141282183826E1     1.437034922434194E2
 2.430000000000000E9    -3.301443727532244E1    -8.473642146653187E1    -1.724964314488011      -6.165300504571669E1    -1.725064103267865      -6.127117165072686E1    -2.365205251166468E1     1.396427413938355E2
 2.440000000000000E9    -3.899326781111969E1    -1.699110631205710E2    -1.728011514549188      -9.447836960483482E1    -1.729340825083317      -9.417314445056046E1    -2.453276780906936E1     1.409128306749001E2
 2.450000000000000E9    -3.460554714577392E1     8.865284727130425E1    -1.737555004711058      -1.273236471763843E2    -1.743802624495083      -1.270059355553888E2    -2.466322589943217E1     1.446280600722155E2
 2.460000000000000E9    -3.064565526568829E1     3.339582265553285E1    -1.744939442300784      -1.602249419496396E2    -1.744034416165698      -1.598471870073204E2    -2.400868367030461E1     1.443141062475718E2
 2.470000000000000E9    -2.985976031841014E1    -1.136225710137095E1    -1.752765820874427       1.669851223572728E2    -1.753143677818239       1.672981486359062E2    -2.385124559117283E1     1.392398522500980E2
 2.480000000000000E9    -3.129689981215900E1    -5.845116783018183E1    -1.765966988593169       1.341899770954436E2    -1.766131962160952       1.344488853294133E2    -2.440965727819412E1     1.332655566463232E2
 2.490000000000000E9    -3.572926230123472E1    -1.237025319428705E2    -1.773717806007136       1.013338239045428E2    -1.773252638583009       1.016288330106507E2    -2.541924272863924E1     1.321212290823118E2
 2.500000000000000E9    -3.615581517010847E1     1.279241629375121E2    -1.780731253399565       6.849874603857994E1    -1.779638844770267       6.881618437359204E1    -2.589064326215571E1     1.364473120282000E2
 2.510000000000000E9    -3.112192575109766E1     6.110133089085164E1    -1.786085629081667       3.560406518430543E1    -1.784686277484582       3.605020148993128E1    -2.529159952621660E1     1.390438798715215E2
 2.520000000000000E9    -2.892460550640393E1     1.440110759544950E1    -1.789192668214232       2.836317578269697      -1.797247816206263       3.326928824466927      -2.454654451070476E1     1.362374644417644E2
 2.530000000000000E9    -2.925315891084390E1    -3.108340257860525E1    -1.797427070401674      -2.998401420493704E1    -1.797313679502252      -2.951978916438324E1    -2.448176160622638E1     1.310699151850816E2
 2.540000000000000E9    -3.247467033759714E1    -8.445233521340003E1    -1.795295755404241      -6.280794301224574E1    -1.801851069508807      -6.227898427238004E1    -2.528948632416519E1     1.270381464654732E2
 2.550000000000000E9    -3.665051234983086E1    -1.756367625906048E2    -1.790103201394914      -9.560924151497720E1    -1.793871201460447      -9.509275920779410E1    -2.613542246102776E1     1.309883398080522E2
 2.560000000000000E9    -3.233947020074518E1     9.536766892337113E1    -1.798822664795348      -1.283967186710985E2    -1.789142830754967      -1.278854340505432E2    -2.586056821052911E1     1.377855185454336E2
 2.570000000000000E9    -2.908904590332711E1     4.020382635854037E1    -1.798516017395095      -1.611223549517982E2    -1.802901317049662      -1.606915347838645E2    -2.494460870982106E1     1.379929205473055E2
 2.580000000000000E9    -2.853441927923244E1    -5.365352725412360      -1.805281270822658       1.660688483076067E2    -1.811353562217326       1.663944324226837E2    -2.450517335092096E1     1.316944591854105E2
 2.590000000000000E9    -3.021578758120516E1    -5.403373762558941E1    -1.802774930694156       1.332753663552434E2    -1.793671289628898       1.336620794751783E2    -2.492838171166315E1     1.239628981750850E2
 2.600000000000000E9    -3.482661971997041E1    -1.151354464216012E2    -1.802103765776859       1.004883804275435E2    -1.801271755574108       1.008425525387547E2    -2.613551934716653E1     1.217480566627137E2
 2.610000000000000E9    -3.612830300698542E1     1.318458480686814E2    -1.796173329982931       6.763093367852845E1    -1.798235076543237       6.802360853641285E1    -2.675852329716590E1     1.273515480225342E2
 2.620000000000000E9    -3.110023209488101E1     6.077490841379696E1    -1.802780429554968       3.488283887970258E1    -1.807579816386021       3.520914168920363E1    -2.607661264386475E1     1.320333742059667E2
 2.630000000000000E9    -2.893020646435822E1     1.345069974381838E1    -1.800140499809846       2.024575786271005      -1.802364730716399       2.386303930044742      -2.500785882222324E1     1.297772046961184E2
 2.640000000000000E9    -2.926152088300999E1    -3.208462580206886E1    -1.803460989689604      -3.082636895277213E1    -1.803043699111340      -3.038032048488024E1    -2.465036691701890E1     1.233618195940687E2
 2.650000000000000E9    -3.229284108558150E1    -8.758676024381435E1    -1.799615016541344      -6.366995462912307E1    -1.799297166405127      -6.320574210515329E1    -2.530914601679124E1     1.187354181889546E2
 2.660000000000000E9    -3.583470606638571E1    -1.760489798383229E2    -1.792837715911481      -9.649149443501359E1    -1.797052538348643      -9.601661514752136E1    -2.619902844649540E1     1.210553032077310E2
 2.670000000000000E9    -3.213448046148292E1     9.531292555624752E1    -1.794923074186542      -1.293113691120533E2    -1.796650483494159      -1.288654981699505E2    -2.622213883086900E1     1.279712726161675E2
 2.680000000000000E9    -2.914224973473175E1     4.030925179540064E1    -1.792682128251322      -1.621257703525487E2    -1.791659995255748      -1.616743585682062E2    -2.518239874306583E1     1.288625062433253E2
 2.690000000000000E9    -2.857265464411870E1    -7.045441142698353      -1.790463668205280       1.650428768926378E2    -1.799606059350732       1.655302327002756E2    -2.451204257857597E1     1.229820623107773E2
 2.700000000000000E9    -3.027361440818567E1    -5.517086758673815E1    -1.795531828998075       1.322056634486975E2    -1.790275347490662       1.327258669014291E2    -2.476404662124424E1     1.141026281744544E2
 2.710000000000000E9    -3.459169299728815E1    -1.192436779331531E2    -1.787603002402720       9.929485893013890E1    -1.795897446005911       9.998365903347693E1    -2.582610644175352E1     1.086962850457473E2
 2.720000000000000E9    -3.652198938359115E1     1.354823765856117E2    -1.792149431548482       6.646073673665499E1    -1.792064578595865       6.709022667542445E1    -2.672540367042561E1     1.117985209684303E2
 2.730000000000000E9    -3.158318063133496E1     6.097221038353042E1    -1.793484388540417       3.356481729163456E1    -1.793089906815604       3.425472827118448E1    -2.644378837978002E1     1.185558286740360E2
 2.740000000000000E9    -2.939347977096247E1     1.207873960968233E1    -1.785512044825571       7.496297127895921E-1   -1.788376258723393       1.512680019528060      -2.518185234522052E1     1.174904598233897E2
 2.750000000000000E9    -2.975532760719045E1    -3.600762425671486E1    -1.788829029077796      -3.209757594043762E1    -1.792375512785593      -3.138186046635058E1    -2.475789504187963E1     1.109799269507472E2
 2.760000000000000E9    -3.263603662618894E1    -8.937591713476806E1    -1.788948092888510      -6.496597849850714E1    -1.784949649950553      -6.424814989988258E1    -2.532248080482443E1     1.040236453966138E2
 2.770000000000000E9    -3.555681235489702E1    -1.779139286584517E2    -1.783513641300011      -9.779759567649961E1    -1.786977220426545      -9.713269950511901E1    -2.650607251377083E1     1.042014842149214E2
 2.780000000000000E9    -3.247055202274948E1     9.513905761127087E1    -1.786469089483068      -1.306879462378022E2    -1.790013594831371      -1.300134878819469E2    -2.694128609893187E1     1.102786532098350E2
 2.790000000000000E9    -2.937014167086300E1     4.047743661928129E1    -1.783379863764327      -1.635178824554939E2    -1.792790502441620      -1.629278192072751E2    -2.596829072853907E1     1.135118761802897E2
 2.800000000000000E9    -2.876890511994551E1    -5.155135649966333      -1.795957118980170       1.636688166552653E2    -1.804702315698267       1.642258327960511E2    -2.515716115025302E1     1.077422800206651E2
 2.810000000000000E9    -3.051951653773188E1    -5.482413346583707E1    -1.803276657735784       1.307601172698075E2    -1.793084665069339       1.314027397472286E2    -2.515323709988113E1     9.820264577022928E1
 2.820000000000000E9    -3.494132935794669E1    -1.192727176663789E2    -1.799040077108022       9.801566793166103E1    -1.802304740542444       9.855413060410318E1    -2.638146329987559E1     9.049231708901530E1
 2.830000000000000E9    -3.636341048050531E1     1.361760428633750E2    -1.802462250387731       6.510909025712188E1    -1.798981938875299       6.565497280490938E1    -2.784373303705729E1     9.247401134623392E1
 2.840000000000000E9    -3.177454901410515E1     6.141538078844680E1    -1.805314122217323       3.235822336020348E1    -1.816412572944633       3.282506198061746E1    -2.814680584568592E1     1.019192241474030E2
 2.850000000000000E9    -2.929183827822996E1     1.236930997203755E1    -1.808300358849293      -5.048045083304720E-1   -1.818202134034645      -6.768420039314403E-2   -2.671159603894606E1     1.040344491501153E2
 2.860000000000000E9    -2.915725201622589E1    -3.594916114876447E1    -1.810589978217919      -3.331837246649456E1    -1.818072512924224      -3.283585233721088E1    -2.573185822671942E1     9.752705237520718E1
 2.870000000000000E9    -3.160170058343198E1    -8.788179875466079E1    -1.814932432035542      -6.613702097365186E1    -1.813310879917996      -6.571443135416075E1    -2.609763037468860E1     8.937088106641858E1
 2.880000000000000E9    -3.526240639998289E1    -1.643913048771884E2    -1.813686633389111      -9.896756514608812E1    -1.811156343023992      -9.861296453656308E1    -2.742502874327963E1     8.490015323723082E1
 2.890000000000000E9    -3.317164049458390E1     1.053572320989869E2    -1.817171294146087      -1.318213069611069E2    -1.820777127073265      -1.314996457148384E2    -2.850775030041388E1     9.007896253823039E1
 2.900000000000000E9    -2.989025232544495E1     4.475334016980339E1    -1.828574671990209      -1.646915905884312E2    -1.822940824466394      -1.643994206081204E2    -2.794326397031778E1     9.720174397813950E1
 2.910000000000000E9    -2.881045338953613E1    -4.400955737710085      -1.834378314195480       1.625275074490006E2    -1.836508115099400       1.627915279535699E2    -2.693440602184679E1     9.330523030777492E1
