! Probe	Frequency	Pt Number	X pos	Y pos	Gamma s11	Phi s11	Gamma s12	Phi s12	Gamma s21	Phi s21	Gamma s22	Phi s22	loss
1	2.00000	1	0	0	0.01573	-110.33	0.95566	 -22.40	0.95569	 -22.30	0.00485	 139.71	 0.39
1	2.00000	2	0	2352	0.01620	-111.33	0.95572	 -22.38	0.95607	 -22.30	0.00424	 145.87	 0.39
1	2.00000	3	310	2352	0.01604	-111.22	0.95569	 -22.35	0.95605	 -22.32	0.00435	 145.67	 0.39
1	2.00000	4	620	2352	0.01634	-111.21	0.95560	 -22.35	0.95637	 -22.28	0.00464	 135.70	 0.39
1	2.00000	5	930	2352	0.01556	-110.40	0.95524	 -22.39	0.95575	 -22.28	0.00473	 137.76	 0.39
1	2.00000	6	1240	2352	0.01600	-109.90	0.95608	 -22.37	0.95567	 -22.32	0.00473	 140.91	 0.39
1	2.00000	7	1550	2352	0.01592	-109.49	0.95569	 -22.38	0.95536	 -22.33	0.00508	 136.30	 0.40
1	2.00000	8	1860	2352	0.01579	-110.54	0.95587	 -22.38	0.95608	 -22.29	0.00512	 134.65	 0.39
1	2.00000	9	2170	2352	0.01545	-109.51	0.95581	 -22.38	0.95618	 -22.31	0.00467	 132.43	 0.39
1	2.00000	10	2480	2352	0.01513	-110.12	0.95647	 -22.35	0.95592	 -22.27	0.00531	 134.57	 0.39
1	2.00000	11	2790	2352	0.01537	-108.96	0.95580	 -22.36	0.95580	 -22.34	0.00540	 137.42	 0.39
1	2.00000	12	3100	2352	0.01531	-109.30	0.95592	 -22.37	0.95595	 -22.30	0.00458	 133.30	 0.39
1	2.00000	13	3410	2352	0.01508	-112.40	0.95572	 -22.38	0.95614	 -22.31	0.00435	 130.20	 0.39
1	2.00000	14	3720	2352	0.01513	-111.60	0.95563	 -22.37	0.95626	 -22.32	0.00417	 130.05	 0.39
1	2.00000	15	4030	2352	0.01528	-111.75	0.95563	 -22.37	0.95695	 -22.34	0.00448	 131.36	 0.38
1	2.00000	16	4340	2352	0.01499	-111.37	0.95599	 -22.36	0.95610	 -22.33	0.00476	 135.79	 0.39
1	2.00000	17	4650	2352	0.01543	-112.02	0.95548	 -22.37	0.95586	 -22.33	0.00439	 133.63	 0.39
1	2.00000	18	4960	2352	0.01562	-113.65	0.95555	 -22.37	0.95626	 -22.31	0.00413	 137.97	 0.39
1	2.00000	19	5270	2352	0.01563	-112.75	0.95600	 -22.38	0.95674	 -22.29	0.00416	 135.62	 0.38
1	2.00000	20	5580	2352	0.01594	-113.32	0.95605	 -22.35	0.95640	 -22.28	0.00446	 143.11	 0.39
1	2.00000	21	5890	2352	0.01637	-113.69	0.95593	 -22.39	0.95573	 -22.32	0.00458	 133.79	 0.39
1	2.00000	22	0	4705	0.05115	-136.42	0.95491	 -22.54	0.95496	 -22.48	0.03184	 -83.82	 0.39
1	2.00000	23	310	4705	0.05187	-122.79	0.95401	 -22.52	0.95459	 -22.41	0.03359	-104.79	 0.39
1	2.00000	24	620	4705	0.05279	-109.35	0.95456	 -22.53	0.95475	 -22.45	0.03448	-123.17	 0.39
1	2.00000	25	930	4705	0.05195	 -95.63	0.95455	 -22.49	0.95424	 -22.43	0.03598	-143.35	 0.40
1	2.00000	26	1240	4705	0.05021	 -82.05	0.95494	 -22.51	0.95494	 -22.46	0.03780	-161.08	 0.39
1	2.00000	27	1550	4705	0.04678	 -67.98	0.95504	 -22.51	0.95434	 -22.48	0.03835	-178.93	 0.40
1	2.00000	28	1860	4705	0.04318	 -53.78	0.95494	 -22.57	0.95486	 -22.48	0.03923	 164.23	 0.39
1	2.00000	29	2170	4705	0.03836	 -37.40	0.95464	 -22.56	0.95470	 -22.45	0.03998	 146.87	 0.40
1	2.00000	30	2480	4705	0.03272	 -19.66	0.95527	 -22.56	0.95534	 -22.52	0.03963	 130.47	 0.39
1	2.00000	31	2790	4705	0.02797	   1.56	0.95476	 -22.60	0.95629	 -22.54	0.03920	 114.51	 0.38
1	2.00000	32	3100	4705	0.02358	  26.45	0.95541	 -22.60	0.95641	 -22.54	0.03881	  96.60	 0.38
1	2.00000	33	3410	4705	0.02172	  56.34	0.95533	 -22.63	0.95579	 -22.57	0.03781	  79.33	 0.39
1	2.00000	34	3720	4705	0.02186	  89.78	0.95535	 -22.66	0.95534	 -22.54	0.03611	  62.33	 0.39
1	2.00000	35	4030	4705	0.02483	 117.93	0.95518	 -22.60	0.95622	 -22.56	0.03463	  42.11	 0.39
1	2.00000	36	4340	4705	0.02915	 141.70	0.95527	 -22.59	0.95531	 -22.57	0.03240	  23.13	 0.39
1	2.00000	37	4650	4705	0.03462	 162.01	0.95528	 -22.57	0.95506	 -22.51	0.03169	   3.18	 0.39
1	2.00000	38	4960	4705	0.03917	 179.52	0.95499	 -22.60	0.95506	 -22.53	0.03050	 -17.64	 0.39
1	2.00000	39	5270	4705	0.04359	-164.61	0.95517	 -22.53	0.95469	 -22.51	0.03074	 -39.76	 0.39
1	2.00000	40	5580	4705	0.04704	-150.03	0.95499	 -22.54	0.95488	 -22.47	0.03005	 -61.88	 0.39
1	2.00000	41	5890	4705	0.05027	-136.09	0.95370	 -22.52	0.95471	 -22.46	0.03056	 -83.59	 0.39
1	2.00000	42	0	5136	0.09551	-141.47	0.95171	 -22.77	0.95140	 -22.71	0.07510	 -80.55	 0.39
1	2.00000	43	281	5136	0.09680	-126.85	0.95086	 -22.76	0.95081	 -22.71	0.07616	 -99.53	 0.40
1	2.00000	44	562	5136	0.09780	-112.01	0.95137	 -22.73	0.95066	 -22.69	0.07710	-116.93	 0.40
1	2.00000	45	843	5136	0.09724	 -97.36	0.95138	 -22.68	0.95145	 -22.64	0.07827	-134.09	 0.39
1	2.00000	46	1124	5136	0.09474	 -83.13	0.95131	 -22.72	0.95154	 -22.70	0.07992	-151.20	 0.39
1	2.00000	47	1405	5136	0.09201	 -67.80	0.95193	 -22.76	0.95177	 -22.72	0.08106	-167.91	 0.39
1	2.00000	48	1686	5136	0.08801	 -52.77	0.95186	 -22.76	0.95185	 -22.74	0.08126	 175.92	 0.39
1	2.00000	49	1967	5136	0.08373	 -36.57	0.95266	 -22.84	0.95224	 -22.78	0.08194	 159.19	 0.39
1	2.00000	50	2248	5136	0.07923	 -20.21	0.95297	 -22.88	0.95261	 -22.80	0.08178	 142.81	 0.39
1	2.00000	51	2529	5136	0.07459	  -2.68	0.95216	 -22.90	0.95311	 -22.87	0.08152	 126.61	 0.39
1	2.00000	52	2810	5136	0.07089	  16.45	0.95336	 -22.90	0.95371	 -22.92	0.08145	 110.37	 0.39
1	2.00000	53	3091	5136	0.06753	  36.41	0.95312	 -23.02	0.95345	 -22.92	0.08027	  94.24	 0.39
1	2.00000	54	3372	5136	0.06577	  57.36	0.95359	 -22.98	0.95385	 -22.93	0.07938	  77.59	 0.39
1	2.00000	55	3653	5136	0.06553	  78.72	0.95332	 -23.01	0.95355	 -22.98	0.07845	  60.94	 0.39
1	2.00000	56	3934	5136	0.06769	  99.10	0.95287	 -23.01	0.95397	 -22.94	0.07674	  43.24	 0.39
1	2.00000	57	4215	5136	0.07015	 119.15	0.95258	 -22.97	0.95310	 -22.91	0.07512	  26.58	 0.40
1	2.00000	58	4496	5136	0.07430	 138.03	0.95270	 -23.00	0.95302	 -22.89	0.07427	   9.24	 0.39
1	2.00000	59	4777	5136	0.07873	 156.00	0.95164	 -22.93	0.95275	 -22.87	0.07301	  -9.20	 0.39
1	2.00000	60	5058	5136	0.08335	 172.89	0.95118	 -22.88	0.95248	 -22.80	0.07229	 -26.81	 0.39
1	2.00000	61	5339	5136	0.08736	-171.22	0.95164	 -22.84	0.95195	 -22.77	0.07239	 -44.92	 0.39
1	2.00000	62	5620	5136	0.09098	-155.80	0.95145	 -22.81	0.95085	 -22.73	0.07234	 -63.06	 0.40
1	2.00000	63	5901	5136	0.09350	-140.76	0.95116	 -22.74	0.95097	 -22.71	0.07282	 -82.00	 0.40
1	2.00000	64	0	5391	0.14240	-143.61	0.94470	 -23.13	0.94535	 -23.12	0.12082	 -80.11	 0.40
1	2.00000	65	210	5391	0.14415	-131.92	0.94515	 -23.13	0.94529	 -23.11	0.12133	 -93.90	 0.40
1	2.00000	66	420	5391	0.14452	-120.31	0.94532	 -23.10	0.94492	 -23.07	0.12112	-106.80	 0.40
1	2.00000	67	630	5391	0.14479	-108.86	0.94552	 -23.09	0.94535	 -23.03	0.12193	-119.99	 0.40
1	2.00000	68	840	5391	0.14375	 -97.17	0.94515	 -23.09	0.94499	 -23.04	0.12326	-133.13	 0.40
1	2.00000	69	1050	5391	0.14259	 -85.57	0.94563	 -23.10	0.94591	 -23.05	0.12427	-145.83	 0.39
1	2.00000	70	1260	5391	0.13988	 -73.91	0.94605	 -23.10	0.94621	 -23.03	0.12526	-158.60	 0.39
1	2.00000	71	1470	5391	0.13792	 -61.99	0.94654	 -23.10	0.94590	 -23.08	0.12563	-171.08	 0.40
1	2.00000	72	1680	5391	0.13487	 -50.14	0.94728	 -23.16	0.94669	 -23.14	0.12663	 176.53	 0.40
1	2.00000	73	1890	5391	0.13135	 -37.96	0.94715	 -23.21	0.94730	 -23.16	0.12656	 163.92	 0.39
1	2.00000	74	2100	5391	0.12772	 -25.38	0.94757	 -23.27	0.94788	 -23.18	0.12670	 151.36	 0.39
1	2.00000	75	2310	5391	0.12449	 -12.50	0.94819	 -23.31	0.94806	 -23.25	0.12711	 138.92	 0.40
1	2.00000	76	2520	5391	0.12117	   0.48	0.94838	 -23.38	0.94858	 -23.31	0.12705	 126.79	 0.39
1	2.00000	77	2730	5391	0.11781	  14.29	0.94894	 -23.38	0.94922	 -23.36	0.12638	 114.20	 0.39
1	2.00000	78	2940	5391	0.11548	  28.38	0.94874	 -23.45	0.94913	 -23.35	0.12587	 101.59	 0.40
1	2.00000	79	3150	5391	0.11334	  42.35	0.94867	 -23.49	0.94931	 -23.39	0.12537	  88.98	 0.40
1	2.00000	80	3360	5391	0.11291	  56.93	0.94904	 -23.54	0.94889	 -23.42	0.12435	  76.67	 0.40
1	2.00000	81	3570	5391	0.11294	  71.58	0.94811	 -23.51	0.94906	 -23.43	0.12303	  63.96	 0.40
1	2.00000	82	3780	5391	0.11341	  85.79	0.94855	 -23.51	0.94837	 -23.48	0.12244	  51.55	 0.40
1	2.00000	83	3990	5391	0.11461	 100.07	0.94790	 -23.50	0.94890	 -23.46	0.12078	  38.48	 0.40
1	2.00000	84	4200	5391	0.11671	 114.21	0.94787	 -23.52	0.94840	 -23.46	0.12033	  25.69	 0.40
1	2.00000	85	4410	5391	0.11945	 127.97	0.94751	 -23.48	0.94819	 -23.43	0.11886	  12.74	 0.40
1	2.00000	86	4620	5391	0.12219	 141.50	0.94719	 -23.43	0.94788	 -23.38	0.11795	  -0.25	 0.40
1	2.00000	87	4830	5391	0.12612	 154.68	0.94689	 -23.42	0.94728	 -23.31	0.11739	 -13.46	 0.40
1	2.00000	88	5040	5391	0.12913	 167.23	0.94663	 -23.37	0.94690	 -23.30	0.11714	 -26.65	 0.40
1	2.00000	89	5250	5391	0.13204	 179.84	0.94632	 -23.27	0.94689	 -23.21	0.11622	 -39.72	 0.40
1	2.00000	90	5460	5391	0.13481	-167.92	0.94621	 -23.25	0.94620	 -23.17	0.11523	 -53.46	 0.40
1	2.00000	91	5670	5391	0.13726	-155.64	0.94579	 -23.22	0.94627	 -23.11	0.11632	 -66.89	 0.40
1	2.00000	92	5880	5391	0.13966	-143.94	0.94614	 -23.14	0.94549	 -23.11	0.11732	 -79.84	 0.40
1	2.00000	93	0	5555	0.18571	-144.99	0.93788	 -23.62	0.93769	 -23.57	0.16181	 -80.55	 0.41
1	2.00000	94	173	5555	0.18692	-135.03	0.93788	 -23.59	0.93765	 -23.51	0.16243	 -91.41	 0.40
1	2.00000	95	346	5555	0.18717	-125.08	0.93819	 -23.53	0.93826	 -23.46	0.16238	-102.21	 0.40
1	2.00000	96	519	5555	0.18758	-115.36	0.93768	 -23.50	0.93798	 -23.48	0.16254	-112.85	 0.40
1	2.00000	97	692	5555	0.18732	-105.59	0.93767	 -23.48	0.93778	 -23.46	0.16333	-123.70	 0.40
1	2.00000	98	865	5555	0.18675	 -95.61	0.93799	 -23.49	0.93840	 -23.45	0.16398	-134.48	 0.40
1	2.00000	99	1038	5555	0.18514	 -85.90	0.93859	 -23.54	0.93837	 -23.46	0.16557	-145.04	 0.40
1	2.00000	100	1211	5555	0.18353	 -76.06	0.93866	 -23.53	0.93858	 -23.45	0.16538	-155.65	 0.40
1	2.00000	101	1384	5555	0.18142	 -66.21	0.93973	 -23.55	0.93924	 -23.48	0.16673	-166.03	 0.40
1	2.00000	102	1557	5555	0.17902	 -56.27	0.94035	 -23.60	0.94019	 -23.54	0.16677	-176.58	 0.39
1	2.00000	103	1730	5555	0.17664	 -46.14	0.94065	 -23.62	0.94026	 -23.58	0.16715	 173.08	 0.40
1	2.00000	104	1903	5555	0.17353	 -35.92	0.94077	 -23.66	0.94017	 -23.61	0.16758	 162.83	 0.40
1	2.00000	105	2076	5555	0.17108	 -25.48	0.94125	 -23.71	0.94085	 -23.64	0.16721	 152.41	 0.40
1	2.00000	106	2249	5555	0.16825	 -15.00	0.94172	 -23.76	0.94190	 -23.71	0.16780	 142.03	 0.40
1	2.00000	107	2422	5555	0.16506	  -4.16	0.94204	 -23.83	0.94189	 -23.78	0.16788	 131.73	 0.40
1	2.00000	108	2595	5555	0.16264	   6.74	0.94198	 -23.93	0.94212	 -23.81	0.16707	 121.31	 0.40
1	2.00000	109	2768	5555	0.16035	  17.73	0.94233	 -23.94	0.94256	 -23.88	0.16729	 111.10	 0.40
1	2.00000	110	2941	5555	0.15864	  28.95	0.94266	 -23.97	0.94304	 -23.91	0.16685	 100.80	 0.40
1	2.00000	111	3114	5555	0.15723	  40.41	0.94282	 -24.02	0.94319	 -23.94	0.16599	  90.28	 0.40
1	2.00000	112	3287	5555	0.15604	  51.90	0.94225	 -24.04	0.94350	 -23.94	0.16521	  80.02	 0.40
1	2.00000	113	3460	5555	0.15556	  63.38	0.94259	 -24.07	0.94308	 -24.00	0.16461	  69.58	 0.40
1	2.00000	114	3633	5555	0.15559	  74.96	0.94275	 -24.10	0.94291	 -24.01	0.16397	  59.26	 0.40
1	2.00000	115	3806	5555	0.15627	  86.44	0.94235	 -24.10	0.94268	 -24.01	0.16292	  48.80	 0.41
1	2.00000	116	3979	5555	0.15755	  97.89	0.94174	 -24.08	0.94245	 -24.02	0.16172	  38.29	 0.41
1	2.00000	117	4152	5555	0.15905	 109.21	0.94161	 -24.11	0.94262	 -24.00	0.16120	  27.54	 0.40
1	2.00000	118	4325	5555	0.16087	 120.50	0.94116	 -24.02	0.94171	 -23.94	0.15990	  17.04	 0.41
1	2.00000	119	4498	5555	0.16344	 131.46	0.94063	 -24.02	0.94177	 -23.93	0.15931	   6.29	 0.40
1	2.00000	120	4671	5555	0.16573	 142.44	0.94068	 -23.97	0.94113	 -23.88	0.15809	  -4.30	 0.41
1	2.00000	121	4844	5555	0.16852	 153.22	0.94065	 -23.90	0.94024	 -23.86	0.15750	 -15.09	 0.41
1	2.00000	122	5017	5555	0.17098	 163.85	0.93974	 -23.86	0.94046	 -23.81	0.15692	 -26.04	 0.40
1	2.00000	123	5190	5555	0.17348	 174.18	0.93951	 -23.82	0.94020	 -23.75	0.15684	 -36.67	 0.40
1	2.00000	124	5363	5555	0.17559	-175.39	0.93917	 -23.75	0.93981	 -23.67	0.15635	 -47.69	 0.40
1	2.00000	125	5536	5555	0.17778	-165.26	0.93877	 -23.66	0.93938	 -23.63	0.15604	 -58.42	 0.40
1	2.00000	126	5709	5555	0.17988	-155.16	0.93826	 -23.58	0.93937	 -23.56	0.15660	 -69.22	 0.40
1	2.00000	127	5882	5555	0.18152	-145.17	0.93882	 -23.58	0.93871	 -23.53	0.15619	 -80.04	 0.40
1	2.00000	128	0	5680	0.22711	-145.97	0.92908	 -24.10	0.92876	 -24.05	0.20115	 -80.79	 0.41
1	2.00000	129	147	5680	0.22768	-137.44	0.92944	 -24.11	0.92898	 -24.01	0.20098	 -90.23	 0.41
1	2.00000	130	294	5680	0.22752	-128.79	0.92874	 -24.06	0.92897	 -23.99	0.20090	 -99.25	 0.41
1	2.00000	131	441	5680	0.22821	-120.31	0.92847	 -23.99	0.92928	 -23.97	0.20216	-108.45	 0.40
1	2.00000	132	588	5680	0.22838	-111.88	0.92905	 -23.94	0.92889	 -23.97	0.20244	-117.46	 0.41
1	2.00000	133	735	5680	0.22750	-103.40	0.92970	 -23.97	0.92941	 -23.95	0.20257	-126.35	 0.41
1	2.00000	134	882	5680	0.22692	 -94.99	0.93018	 -23.97	0.93014	 -23.96	0.20339	-135.72	 0.40
1	2.00000	135	1029	5680	0.22563	 -86.56	0.93022	 -23.96	0.93029	 -23.96	0.20404	-144.72	 0.40
1	2.00000	136	1176	5680	0.22433	 -78.05	0.93086	 -24.01	0.93050	 -23.96	0.20409	-153.72	 0.40
1	2.00000	137	1323	5680	0.22261	 -69.59	0.93120	 -24.03	0.93098	 -23.97	0.20496	-162.39	 0.40
1	2.00000	138	1470	5680	0.22050	 -61.05	0.93162	 -24.04	0.93125	 -24.00	0.20488	-171.39	 0.40
1	2.00000	139	1617	5680	0.21867	 -52.48	0.93216	 -24.10	0.93124	 -24.02	0.20600	 179.48	 0.41
1	2.00000	140	1764	5680	0.21658	 -43.74	0.93225	 -24.13	0.93241	 -24.09	0.20587	 170.81	 0.40
1	2.00000	141	1911	5680	0.21402	 -35.05	0.93277	 -24.18	0.93274	 -24.15	0.20610	 161.90	 0.40
1	2.00000	142	2058	5680	0.21151	 -26.14	0.93357	 -24.25	0.93352	 -24.21	0.20667	 152.93	 0.40
1	2.00000	143	2205	5680	0.20913	 -17.09	0.93322	 -24.28	0.93339	 -24.20	0.20614	 144.23	 0.40
1	2.00000	144	2352	5680	0.20683	  -8.08	0.93424	 -24.34	0.93451	 -24.31	0.20680	 135.41	 0.40
1	2.00000	145	2499	5680	0.20455	   0.96	0.93457	 -24.40	0.93417	 -24.33	0.20706	 126.61	 0.41
1	2.00000	146	2646	5680	0.20252	  10.35	0.93438	 -24.52	0.93487	 -24.41	0.20695	 117.83	 0.40
1	2.00000	147	2793	5680	0.20034	  19.64	0.93488	 -24.54	0.93491	 -24.48	0.20607	 108.89	 0.41
1	2.00000	148	2940	5680	0.19933	  29.04	0.93534	 -24.59	0.93525	 -24.50	0.20557	 100.06	 0.41
1	2.00000	149	3087	5680	0.19854	  38.42	0.93480	 -24.62	0.93568	 -24.55	0.20557	  91.23	 0.40
1	2.00000	150	3234	5680	0.19747	  48.06	0.93478	 -24.66	0.93540	 -24.61	0.20495	  82.22	 0.41
1	2.00000	151	3381	5680	0.19680	  57.64	0.93460	 -24.68	0.93597	 -24.60	0.20438	  73.64	 0.40
1	2.00000	152	3528	5680	0.19643	  67.18	0.93541	 -24.71	0.93557	 -24.64	0.20344	  64.60	 0.41
1	2.00000	153	3675	5680	0.19688	  76.91	0.93469	 -24.72	0.93574	 -24.63	0.20306	  55.62	 0.41
1	2.00000	154	3822	5680	0.19789	  86.54	0.93432	 -24.72	0.93534	 -24.62	0.20177	  46.93	 0.41
1	2.00000	155	3969	5680	0.19870	  96.01	0.93370	 -24.72	0.93493	 -24.60	0.20073	  37.71	 0.41
1	2.00000	156	4116	5680	0.19978	 105.57	0.93348	 -24.70	0.93436	 -24.61	0.20017	  28.98	 0.41
1	2.00000	157	4263	5680	0.20104	 115.04	0.93332	 -24.68	0.93364	 -24.58	0.19941	  19.98	 0.42
1	2.00000	158	4410	5680	0.20313	 124.38	0.93320	 -24.62	0.93427	 -24.52	0.19849	  10.83	 0.41
1	2.00000	159	4557	5680	0.20474	 133.77	0.93262	 -24.57	0.93355	 -24.50	0.19716	   1.87	 0.41
1	2.00000	160	4704	5680	0.20675	 142.94	0.93313	 -24.57	0.93345	 -24.47	0.19671	  -7.22	 0.41
1	2.00000	161	4851	5680	0.20939	 152.06	0.93202	 -24.50	0.93260	 -24.42	0.19649	 -16.30	 0.41
1	2.00000	162	4998	5680	0.21124	 160.94	0.93198	 -24.43	0.93226	 -24.38	0.19612	 -25.44	 0.41
1	2.00000	163	5145	5680	0.21308	 170.00	0.93145	 -24.35	0.93205	 -24.29	0.19554	 -34.42	 0.41
1	2.00000	164	5292	5680	0.21523	 178.79	0.93104	 -24.29	0.93098	 -24.22	0.19494	 -43.72	 0.42
1	2.00000	165	5439	5680	0.21695	-172.40	0.93034	 -24.22	0.93133	 -24.17	0.19433	 -52.69	 0.41
1	2.00000	166	5586	5680	0.21812	-163.55	0.93068	 -24.17	0.93029	 -24.09	0.19450	 -61.99	 0.42
1	2.00000	167	5733	5680	0.22006	-154.95	0.93014	 -24.09	0.93029	 -24.01	0.19510	 -71.16	 0.41
1	2.00000	168	5880	5680	0.22119	-146.37	0.92991	 -24.05	0.93073	 -23.98	0.19447	 -80.19	 0.41
1	2.00000	169	0	5792	0.27021	-146.94	0.91761	 -24.77	0.91702	 -24.67	0.24300	 -81.36	 0.42
1	2.00000	170	125	5792	0.27085	-139.65	0.91757	 -24.69	0.91740	 -24.65	0.24314	 -89.14	 0.42
1	2.00000	171	250	5792	0.27194	-132.24	0.91741	 -24.68	0.91644	 -24.65	0.24279	 -96.95	 0.42
1	2.00000	172	375	5792	0.27263	-124.89	0.91758	 -24.64	0.91693	 -24.61	0.24368	-104.73	 0.42
1	2.00000	173	500	5792	0.27213	-117.68	0.91705	 -24.65	0.91741	 -24.60	0.24454	-112.52	 0.41
1	2.00000	174	625	5792	0.27228	-110.30	0.91812	 -24.63	0.91704	 -24.57	0.24435	-120.26	 0.42
1	2.00000	175	750	5792	0.27178	-103.12	0.91903	 -24.58	0.91783	 -24.55	0.24515	-127.87	 0.41
1	2.00000	176	875	5792	0.27121	 -95.84	0.91811	 -24.59	0.91768	 -24.56	0.24538	-135.53	 0.41
1	2.00000	177	1000	5792	0.26967	 -88.54	0.91853	 -24.62	0.91867	 -24.55	0.24618	-143.38	 0.41
1	2.00000	178	1125	5792	0.26897	 -81.29	0.91959	 -24.60	0.91891	 -24.59	0.24556	-151.08	 0.41
1	2.00000	179	1250	5792	0.26754	 -73.96	0.91978	 -24.62	0.91952	 -24.62	0.24671	-158.60	 0.41
1	2.00000	180	1375	5792	0.26550	 -66.69	0.92017	 -24.64	0.91984	 -24.62	0.24683	-166.35	 0.41
1	2.00000	181	1500	5792	0.26405	 -59.29	0.92069	 -24.67	0.92098	 -24.67	0.24705	-173.78	 0.40
1	2.00000	182	1625	5792	0.26220	 -51.94	0.92149	 -24.69	0.92120	 -24.67	0.24788	 178.62	 0.40
1	2.00000	183	1750	5792	0.25983	 -44.55	0.92170	 -24.73	0.92100	 -24.72	0.24823	 170.97	 0.41
1	2.00000	184	1875	5792	0.25807	 -36.99	0.92225	 -24.80	0.92158	 -24.76	0.24872	 163.50	 0.41
1	2.00000	185	2000	5792	0.25621	 -29.48	0.92230	 -24.89	0.92261	 -24.84	0.24896	 155.87	 0.40
1	2.00000	186	2125	5792	0.25436	 -21.92	0.92282	 -24.96	0.92285	 -24.87	0.24843	 148.35	 0.41
1	2.00000	187	2250	5792	0.25245	 -14.29	0.92305	 -25.00	0.92357	 -24.95	0.24868	 140.71	 0.40
1	2.00000	188	2375	5792	0.25052	  -6.64	0.92347	 -25.03	0.92388	 -24.98	0.24838	 133.13	 0.41
1	2.00000	189	2500	5792	0.24828	   1.09	0.92439	 -25.11	0.92427	 -25.06	0.24816	 125.63	 0.41
1	2.00000	190	2625	5792	0.24740	   9.05	0.92395	 -25.13	0.92485	 -25.09	0.24814	 118.28	 0.40
1	2.00000	191	2750	5792	0.24557	  16.84	0.92476	 -25.19	0.92526	 -25.16	0.24877	 110.52	 0.40
1	2.00000	192	2875	5792	0.24478	  24.78	0.92466	 -25.31	0.92504	 -25.22	0.24851	 103.07	 0.41
1	2.00000	193	3000	5792	0.24336	  32.71	0.92490	 -25.33	0.92488	 -25.26	0.24753	  95.58	 0.41
1	2.00000	194	3125	5792	0.24261	  40.63	0.92522	 -25.37	0.92540	 -25.30	0.24670	  87.98	 0.41
1	2.00000	195	3250	5792	0.24191	  48.61	0.92502	 -25.41	0.92562	 -25.30	0.24650	  80.55	 0.41
1	2.00000	196	3375	5792	0.24153	  56.60	0.92547	 -25.42	0.92542	 -25.35	0.24588	  72.86	 0.41
1	2.00000	197	3500	5792	0.24137	  64.78	0.92490	 -25.46	0.92550	 -25.41	0.24590	  65.38	 0.41
1	2.00000	198	3625	5792	0.24137	  72.77	0.92452	 -25.49	0.92505	 -25.37	0.24478	  57.58	 0.42
1	2.00000	199	3750	5792	0.24172	  80.89	0.92404	 -25.49	0.92462	 -25.40	0.24419	  50.17	 0.42
1	2.00000	200	3875	5792	0.24237	  88.97	0.92321	 -25.49	0.92501	 -25.37	0.24302	  42.60	 0.41
1	2.00000	201	4000	5792	0.24328	  96.96	0.92368	 -25.44	0.92393	 -25.36	0.24214	  35.12	 0.42
1	2.00000	202	4125	5792	0.24372	 104.99	0.92347	 -25.47	0.92447	 -25.35	0.24149	  27.46	 0.42
1	2.00000	203	4250	5792	0.24511	 112.89	0.92276	 -25.43	0.92466	 -25.33	0.24103	  19.84	 0.41
1	2.00000	204	4375	5792	0.24630	 120.77	0.92306	 -25.38	0.92350	 -25.33	0.24036	  12.16	 0.42
1	2.00000	205	4500	5792	0.24797	 128.60	0.92245	 -25.33	0.92313	 -25.24	0.23918	   4.43	 0.42
1	2.00000	206	4625	5792	0.24906	 136.61	0.92214	 -25.30	0.92273	 -25.24	0.23879	  -3.18	 0.42
1	2.00000	207	4750	5792	0.25128	 144.33	0.92183	 -25.25	0.92268	 -25.20	0.23758	 -10.88	 0.42
1	2.00000	208	4875	5792	0.25305	 152.09	0.92167	 -25.19	0.92196	 -25.10	0.23753	 -18.66	 0.42
1	2.00000	209	5000	5792	0.25498	 159.73	0.92098	 -25.13	0.92132	 -25.05	0.23677	 -26.24	 0.42
1	2.00000	210	5125	5792	0.25600	 167.27	0.92056	 -25.03	0.92107	 -25.02	0.23642	 -33.92	 0.42
1	2.00000	211	5250	5792	0.25823	 174.99	0.92095	 -24.99	0.92111	 -24.91	0.23579	 -41.87	 0.41
1	2.00000	212	5375	5792	0.25934	-177.42	0.92062	 -24.91	0.92065	 -24.86	0.23642	 -49.40	 0.42
1	2.00000	213	5500	5792	0.26104	-169.96	0.91950	 -24.84	0.92063	 -24.84	0.23549	 -57.25	 0.41
